T3558 000:036.204   SEGGER J-Link V7.64d Log File
T3558 000:036.337   DLL Compiled: May  3 2022 15:57:13
T3558 000:036.348   Logging started @ 2023-08-18 04:35
T3558 000:036.360 - 36.365ms
T3558 000:036.375 JLINK_SetWarnOutHandler(...)
T3558 000:036.388 - 0.017ms
T3558 000:036.400 JLINK_OpenEx(...)
T3558 000:038.601   Firmware: J-Link ARM V8 compiled Jan 31 2018 18:34:52
T3558 000:038.964   Firmware: J-Link ARM V8 compiled Jan 31 2018 18:34:52
T3558 000:041.305   Hardware: V8.00
T3558 000:041.331   S/N: 20080643
T3558 000:041.349   OEM: SEGGER
T3558 000:041.370   Feature(s): RDI,FlashDL,FlashBP,JFlash,GDBFull
T3558 000:042.309   TELNET listener socket opened on port 19021
T3558 000:042.410   WEBSRV WEBSRV_Init(): Starting webserver thread(s)
T3558 000:043.308   WEBSRV Webserver running on local port 19080
T3558 000:053.195 - 16.819ms returns "O.K."
T3558 000:053.246 JLINK_GetEmuCaps()
T3558 000:053.258 - 0.017ms returns 0xB9FF7BBF
T3558 000:053.276 JLINK_TIF_GetAvailable(...)
T3558 000:053.495 - 0.226ms
T3558 000:053.513 JLINK_SetErrorOutHandler(...)
T3558 000:053.524 - 0.015ms
T3558 000:053.555 JLINK_ExecCommand("ProjectFile = "J:\temporary_cache_files\STM32F407ZGT6\MDK-ARM\JLinkSettings.ini"", ...). 
T3558 000:065.251   Ref file found at: D:\Daily Application\MDK_keil5\core_keil5\ARM\Segger\JLinkDevices.ref
T3558 000:065.332   REF file references invalid XML file: E:\Program Files\SEGGER\JLink\JLinkDevices.xml
T3558 000:065.522 - 11.975ms returns 0x00
T3558 000:075.565 JLINK_ExecCommand("Device = STM32F407ZGTx", ...). 
T3558 000:082.999   Device "STM32F407ZG" selected.
T3558 000:083.386 - 7.797ms returns 0x00
T3558 000:083.414 JLINK_ExecCommand("DisableConnectionTimeout", ...). 
T3558 000:083.429 - 0.007ms returns 0x01
T3558 000:083.442 JLINK_GetHardwareVersion()
T3558 000:083.453 - 0.016ms returns 80000
T3558 000:083.475 JLINK_GetDLLVersion()
T3558 000:083.486 - 0.015ms returns 76404
T3558 000:083.501 JLINK_GetOEMString(...)
T3558 000:083.516 JLINK_GetFirmwareString(...)
T3558 000:083.527 - 0.015ms
T3558 000:103.090 JLINK_GetDLLVersion()
T3558 000:103.129 - 0.047ms returns 76404
T3558 000:103.145 JLINK_GetCompileDateTime()
T3558 000:103.160 - 0.020ms
T3558 000:109.583 JLINK_GetFirmwareString(...)
T3558 000:109.628 - 0.050ms
T3558 000:114.620 JLINK_GetHardwareVersion()
T3558 000:114.655 - 0.040ms returns 80000
T3558 000:120.809 JLINK_GetSN()
T3558 000:120.842 - 0.038ms returns 20080643
T3558 000:126.807 JLINK_GetOEMString(...)
T3558 000:138.052 JLINK_TIF_Select(JLINKARM_TIF_JTAG)
T3558 000:138.843 - 0.817ms returns 0x00
T3558 000:138.881 JLINK_HasError()
T3558 000:138.899 JLINK_SetSpeed(5000)
T3558 000:138.976 - 0.083ms
T3558 000:138.996 JLINK_GetIdData(pIdData)
T3558 000:144.474   InitTarget() start
T3558 000:144.514    J-Link Script File: Executing InitTarget()
T3558 000:152.025   Could not measure total IR len. TDO is constant high.
T3558 000:157.983   Error: Scanning JTAG chain failed.
T3558 000:163.202   Can not attach to CPU. Trying connect under reset.
T3558 000:225.542   TotalIRLen = 9, IRPrint = 0x0011
T3558 000:231.602   JTAG chain detection found 2 devices:
T3558 000:237.339    #0 Id: 0x4BA00477, IRLen: 04, CoreSight JTAG-DP
T3558 000:243.013    #1 Id: 0x06413041, IRLen: 05, STM32 Boundary Scan
T3558 000:362.118   InitTarget() end
T3558 000:365.979   TotalIRLen = 9, IRPrint = 0x0011
T3558 000:370.307   JTAG chain detection found 2 devices:
T3558 000:373.067    #0 Id: 0x4BA00477, IRLen: 04, CoreSight JTAG-DP
T3558 000:375.873    #1 Id: 0x06413041, IRLen: 05, STM32 Boundary Scan
T3558 000:379.246   Old FW that does not support reading DPIDR via DAP jobs
T3558 000:386.627   DPv0 detected
T3558 000:390.445   CoreSight SoC-400 or earlier
T3558 000:394.377   Scanning AP map to find all available APs
T3558 000:400.065   AP[1]: Stopped AP scan as end of AP map has been reached
T3558 000:404.251   AP[0]: AHB-AP (IDR: 0x24770011)
T3558 000:407.042   Iterating through AP map to find AHB-AP to use
T3558 000:415.107   AP[0]: Core found
T3558 000:417.815   AP[0]: AHB-AP ROM base: 0xE00FF000
T3558 000:422.709   CPUID register: 0x410FC241. Implementer code: 0x41 (ARM)
T3558 000:425.629   Found Cortex-M4 r0p1, Little endian.
T3558 000:426.056   -- Max. mem block: 0x000020B0
T3558 000:426.178   CPU_ReadMem(4 bytes @ 0xE000EDF0)
T3558 000:429.500   CPU_ReadMem(4 bytes @ 0xE0002000)
T3558 000:433.971   FPUnit: 6 code (BP) slots and 2 literal slots
T3558 000:434.012   CPU_ReadMem(4 bytes @ 0xE000EDFC)
T3558 000:434.487   CPU_WriteMem(4 bytes @ 0xE000EDFC)
T3558 000:434.891   CPU_ReadMem(4 bytes @ 0xE0001000)
T3558 000:435.314   CPU_WriteMem(4 bytes @ 0xE0001000)
T3558 000:435.696   CPU_ReadMem(4 bytes @ 0xE000ED88)
T3558 000:436.129   CPU_WriteMem(4 bytes @ 0xE000ED88)
T3558 000:436.573   CPU_ReadMem(4 bytes @ 0xE000ED88)
T3558 000:437.105   CPU_WriteMem(4 bytes @ 0xE000ED88)
T3558 000:440.657   CoreSight components:
T3558 000:444.356   ROMTbl[0] @ E00FF000
T3558 000:444.398   CPU_ReadMem(64 bytes @ 0xE00FF000)
T3558 000:445.511   CPU_ReadMem(32 bytes @ 0xE000EFE0)
T3558 000:449.101   [0][0]: E000E000 CID B105E00D PID 000BB00C SCS-M7
T3558 000:449.129   CPU_ReadMem(32 bytes @ 0xE0001FE0)
T3558 000:453.048   [0][1]: E0001000 CID B105E00D PID 003BB002 DWT
T3558 000:453.081   CPU_ReadMem(32 bytes @ 0xE0002FE0)
T3558 000:456.427   [0][2]: E0002000 CID B105E00D PID 002BB003 FPB
T3558 000:456.457   CPU_ReadMem(32 bytes @ 0xE0000FE0)
T3558 000:460.139   [0][3]: E0000000 CID B105E00D PID 003BB001 ITM
T3558 000:460.170   CPU_ReadMem(32 bytes @ 0xE0040FE0)
T3558 000:463.568   [0][4]: E0040000 CID B105900D PID 000BB9A1 TPIU
T3558 000:463.600   CPU_ReadMem(32 bytes @ 0xE0041FE0)
T3558 000:466.900   [0][5]: E0041000 CID B105900D PID 000BB925 ETM
T3558 000:466.955   pIdData->ScanLen=9
T3558 000:466.968   
T3558 000:466.977   pIdData->NumDevices=2
T3558 000:466.989   
T3558 000:466.998   pIdData->aId[0]=0x4BA00477
T3558 000:467.010   
T3558 000:467.019   pIdData->aIrRead[0]=0
T3558 000:467.031   
T3558 000:467.040   pIdData->aScanLen[0]=0
T3558 000:467.053   
T3558 000:467.061   pIdData->aScanRead[0]=0
T3558 000:467.073   
T3558 000:467.082 - 328.090ms
T3558 000:467.105 JLINK_JTAG_GetDeviceID(DeviceIndex = 0)
T3558 000:467.114 - 0.013ms returns 1268778103
T3558 000:467.192 JLINK_JTAG_GetDeviceInfo(DeviceIndex = 0)
T3558 000:467.206 - 0.020ms returns 0
T3558 000:467.218 JLINK_JTAG_GetDeviceID(DeviceIndex = 1)
T3558 000:467.227 - 0.015ms returns 104935489
T3558 000:467.241 JLINK_JTAG_GetDeviceInfo(DeviceIndex = 1)
T3558 000:467.249 - 0.012ms returns 0
T3558 000:467.268 JLINK_GetDLLVersion()
T3558 000:467.277 - 0.012ms returns 76404
T3558 000:467.287 JLINK_CORE_GetFound()
T3558 000:467.295 - 0.013ms returns 0xE0000FF
T3558 000:467.306 JLINK_GetDebugInfo(0x100 = JLINKARM_ROM_TABLE_ADDR_INDEX)
T3558 000:467.316   Value=0xE00FF000
T3558 000:467.328 - 0.026ms returns 0
T3558 000:470.010 JLINK_GetDebugInfo(0x100 = JLINKARM_ROM_TABLE_ADDR_INDEX)
T3558 000:470.028   Value=0xE00FF000
T3558 000:470.040 - 0.037ms returns 0
T3558 000:470.055 JLINK_GetDebugInfo(0x101 = JLINKARM_DEBUG_INFO_ETM_ADDR_INDEX)
T3558 000:470.064   Value=0xE0041000
T3558 000:470.077 - 0.025ms returns 0
T3558 000:470.091 JLINK_ReadMemEx(0xE0041FD0, 0x20 Bytes, Flags = 0x02000004)
T3558 000:470.127   CPU_ReadMem(32 bytes @ 0xE0041FD0)
T3558 000:470.829   Data:  04 00 00 00 00 00 00 00 00 00 00 00 00 00 00 00 ...
T3558 000:470.844 - 0.758ms returns 32 (0x20)
T3558 000:470.856 JLINK_GetDebugInfo(0x102 = JLINKARM_DEBUG_INFO_MTB_ADDR_INDEX)
T3558 000:470.866   Value=0x00000000
T3558 000:470.878 - 0.026ms returns 0
T3558 000:470.888 JLINK_GetDebugInfo(0x103 = JLINKARM_DEBUG_INFO_TPIU_ADDR_INDEX)
T3558 000:470.898   Value=0xE0040000
T3558 000:470.910 - 0.025ms returns 0
T3558 000:470.920 JLINK_GetDebugInfo(0x104 = JLINKARM_DEBUG_INFO_ITM_ADDR_INDEX)
T3558 000:470.929   Value=0xE0000000
T3558 000:470.941 - 0.025ms returns 0
T3558 000:470.951 JLINK_GetDebugInfo(0x105 = JLINKARM_DEBUG_INFO_DWT_ADDR_INDEX)
T3558 000:470.959   Value=0xE0001000
T3558 000:470.972 - 0.025ms returns 0
T3558 000:470.985 JLINK_GetDebugInfo(0x106 = JLINKARM_DEBUG_INFO_FPB_ADDR_INDEX)
T3558 000:470.995   Value=0xE0002000
T3558 000:471.008 - 0.027ms returns 0
T3558 000:471.017 JLINK_GetDebugInfo(0x107 = JLINKARM_DEBUG_INFO_NVIC_ADDR_INDEX)
T3558 000:471.026   Value=0xE000E000
T3558 000:471.039 - 0.025ms returns 0
T3558 000:471.048 JLINK_GetDebugInfo(0x10C = JLINKARM_DEBUG_INFO_DBG_ADDR_INDEX)
T3558 000:471.058   Value=0xE000EDF0
T3558 000:471.070 - 0.025ms returns 0
T3558 000:471.079 JLINK_GetDebugInfo(0x01 = Unknown)
T3558 000:471.088   Value=0x00000001
T3558 000:471.101 - 0.025ms returns 0
T3558 000:471.111 JLINK_ReadMemU32(0xE000ED00, 0x1 Items)
T3558 000:471.123   CPU_ReadMem(4 bytes @ 0xE000ED00)
T3558 000:471.575   Data:  41 C2 0F 41
T3558 000:471.591   Debug reg: CPUID
T3558 000:471.604 - 0.497ms returns 1 (0x1)
T3558 000:471.616 JLINK_GetDebugInfo(0x10F = JLINKARM_DEBUG_INFO_HAS_CORTEX_M_SECURITY_EXT_INDEX)
T3558 000:471.625   Value=0x00000000
T3558 000:471.638 - 0.026ms returns 0
T3558 000:471.648 JLINK_HasError()
T3558 000:471.659 JLINK_SetResetType(JLINKARM_CM3_RESET_TYPE_NORMAL)
T3558 000:471.669 - 0.013ms returns JLINKARM_CM3_RESET_TYPE_NORMAL
T3558 000:471.678 JLINK_Reset()
T3558 000:471.694   CPU is running
T3558 000:471.707   CPU_WriteMem(4 bytes @ 0xE000EDF0)
T3558 000:472.139   CPU is running
T3558 000:472.162   CPU_WriteMem(4 bytes @ 0xE000EDFC)
T3558 000:475.414   Reset: Halt core after reset via DEMCR.VC_CORERESET.
T3558 000:478.346   Reset: Reset device via AIRCR.SYSRESETREQ.
T3558 000:478.370   CPU is running
T3558 000:478.386   CPU_WriteMem(4 bytes @ 0xE000ED0C)
T3558 000:529.259   CPU_ReadMem(4 bytes @ 0xE000EDF0)
T3558 000:529.784   CPU_ReadMem(4 bytes @ 0xE000EDF0)
T3558 000:530.220   CPU is running
T3558 000:530.250   CPU_WriteMem(4 bytes @ 0xE000EDF0)
T3558 000:530.642   CPU is running
T3558 000:530.659   CPU_WriteMem(4 bytes @ 0xE000EDFC)
T3558 000:536.258   CPU_ReadMem(4 bytes @ 0xE000EDF0)
T3558 000:539.639   CPU_WriteMem(4 bytes @ 0xE000EDFC)
T3558 000:539.989   CPU_WriteMem(4 bytes @ 0xE0001028)
T3558 000:540.363   CPU_WriteMem(4 bytes @ 0xE0001038)
T3558 000:540.756   CPU_WriteMem(4 bytes @ 0xE0001048)
T3558 000:541.119   CPU_WriteMem(4 bytes @ 0xE0001058)
T3558 000:541.506   CPU_WriteMem(4 bytes @ 0xE0002000)
T3558 000:541.896   CPU_ReadMem(4 bytes @ 0xE000EDFC)
T3558 000:542.296   CPU_ReadMem(4 bytes @ 0xE0001000)
T3558 000:542.731 - 71.059ms
T3558 000:542.751 JLINK_Halt()
T3558 000:542.760 - 0.012ms returns 0x00
T3558 000:542.770 JLINK_ReadMemU32(0xE000EDF0, 0x1 Items)
T3558 000:542.783   CPU_ReadMem(4 bytes @ 0xE000EDF0)
T3558 000:543.189   Data:  03 00 03 00
T3558 000:543.202   Debug reg: DHCSR
T3558 000:543.213 - 0.447ms returns 1 (0x1)
T3558 000:543.229 JLINK_WriteU32_64(0xE000EDF0, 0xA05F0003)
T3558 000:543.237   Debug reg: DHCSR
T3558 000:543.494   CPU_WriteMem(4 bytes @ 0xE000EDF0)
T3558 000:543.868 - 0.650ms returns 0 (0x00000000)
T3558 000:543.891 JLINK_WriteU32_64(0xE000EDFC, 0x01000000)
T3558 000:543.899   Debug reg: DEMCR
T3558 000:543.917   CPU_WriteMem(4 bytes @ 0xE000EDFC)
T3558 000:544.315 - 0.440ms returns 0 (0x00000000)
T3558 000:555.166 JLINK_GetHWStatus(...)
T3558 000:555.484 - 0.332ms returns 0
T3558 000:564.789 JLINK_GetNumBPUnits(Type = 0xFFFFFF00)
T3558 000:564.815 - 0.030ms returns 0x06
T3558 000:564.825 JLINK_GetNumBPUnits(Type = 0xF0)
T3558 000:564.833 - 0.012ms returns 0x2000
T3558 000:564.843 JLINK_GetNumWPUnits()
T3558 000:564.850 - 0.011ms returns 4
T3558 000:573.729 JLINK_GetSpeed()
T3558 000:573.755 - 0.030ms returns 4800
T3558 000:578.834 JLINK_ReadMemU32(0xE000E004, 0x1 Items)
T3558 000:578.878   CPU_ReadMem(4 bytes @ 0xE000E004)
T3558 000:579.385   Data:  02 00 00 00
T3558 000:579.400 - 0.570ms returns 1 (0x1)
T3558 000:579.411 JLINK_ReadMemU32(0xE000E004, 0x1 Items)
T3558 000:579.423   CPU_ReadMem(4 bytes @ 0xE000E004)
T3558 000:579.970   Data:  02 00 00 00
T3558 000:579.984 - 0.576ms returns 1 (0x1)
T3558 000:579.994 JLINK_WriteMemEx(0xE0001000, 0x0000001C Bytes, Flags = 0x02000004)
T3558 000:580.007   Data:  01 00 00 00 00 00 00 00 00 00 00 00 00 00 00 00 ...
T3558 000:580.028   CPU_WriteMem(28 bytes @ 0xE0001000)
T3558 000:580.531 - 0.542ms returns 0x1C
T3558 000:580.547 JLINK_Halt()
T3558 000:580.556 - 0.013ms returns 0x00
T3558 000:580.565 JLINK_IsHalted()
T3558 000:580.574 - 0.013ms returns TRUE
T3558 000:582.784 JLINK_WriteMem(0x20000000, 0x180 Bytes, ...)
T3558 000:582.801   Data:  00 BE 0A E0 0D 78 2D 06 68 40 08 24 40 00 00 D3 ...
T3558 000:583.076   CPU_WriteMem(384 bytes @ 0x20000000)
T3558 000:586.568 - 3.800ms returns 0x180
T3558 000:586.632 JLINK_HasError()
T3558 000:586.644 JLINK_WriteReg(R0, 0x08000000)
T3558 000:586.656 - 0.016ms returns 0
T3558 000:586.666 JLINK_WriteReg(R1, 0x007A1200)
T3558 000:586.674 - 0.012ms returns 0
T3558 000:586.684 JLINK_WriteReg(R2, 0x00000001)
T3558 000:586.692 - 0.012ms returns 0
T3558 000:586.701 JLINK_WriteReg(R3, 0x00000000)
T3558 000:586.710 - 0.012ms returns 0
T3558 000:586.719 JLINK_WriteReg(R4, 0x00000000)
T3558 000:586.728 - 0.012ms returns 0
T3558 000:586.737 JLINK_WriteReg(R5, 0x00000000)
T3558 000:586.745 - 0.012ms returns 0
T3558 000:586.754 JLINK_WriteReg(R6, 0x00000000)
T3558 000:586.762 - 0.012ms returns 0
T3558 000:586.772 JLINK_WriteReg(R7, 0x00000000)
T3558 000:586.780 - 0.012ms returns 0
T3558 000:586.789 JLINK_WriteReg(R8, 0x00000000)
T3558 000:586.809 - 0.023ms returns 0
T3558 000:586.818 JLINK_WriteReg(R9, 0x2000017C)
T3558 000:586.826 - 0.012ms returns 0
T3558 000:586.835 JLINK_WriteReg(R10, 0x00000000)
T3558 000:586.843 - 0.012ms returns 0
T3558 000:586.853 JLINK_WriteReg(R11, 0x00000000)
T3558 000:586.861 - 0.012ms returns 0
T3558 000:586.870 JLINK_WriteReg(R12, 0x00000000)
T3558 000:586.878 - 0.012ms returns 0
T3558 000:586.888 JLINK_WriteReg(R13 (SP), 0x20001000)
T3558 000:586.897 - 0.013ms returns 0
T3558 000:586.906 JLINK_WriteReg(R14, 0x20000001)
T3558 000:586.915 - 0.012ms returns 0
T3558 000:586.924 JLINK_WriteReg(R15 (PC), 0x20000054)
T3558 000:586.935 - 0.014ms returns 0
T3558 000:586.944 JLINK_WriteReg(XPSR, 0x01000000)
T3558 000:586.953 - 0.013ms returns 0
T3558 000:586.962 JLINK_WriteReg(MSP, 0x20001000)
T3558 000:586.970 - 0.012ms returns 0
T3558 000:586.979 JLINK_WriteReg(PSP, 0x20001000)
T3558 000:586.988 - 0.012ms returns 0
T3558 000:586.997 JLINK_WriteReg(CFBP, 0x00000000)
T3558 000:587.005 - 0.012ms returns 0
T3558 000:587.015 JLINK_SetBPEx(Addr = 0x20000000, Type = 0xFFFFFFF2)
T3558 000:587.028   CPU_ReadMem(2 bytes @ 0x20000000)
T3558 000:587.485 - 0.479ms returns 0x00000001
T3558 000:587.502 JLINK_Go()
T3558 000:587.513   CPU_WriteMem(2 bytes @ 0x20000000)
T3558 000:587.920   CPU_ReadMem(4 bytes @ 0xE0001000)
T3558 000:588.379   CPU_WriteMem(4 bytes @ 0xE0002008)
T3558 000:588.393   CPU_WriteMem(4 bytes @ 0xE000200C)
T3558 000:588.405   CPU_WriteMem(4 bytes @ 0xE0002010)
T3558 000:588.417   CPU_WriteMem(4 bytes @ 0xE0002014)
T3558 000:588.429   CPU_WriteMem(4 bytes @ 0xE0002018)
T3558 000:588.442   CPU_WriteMem(4 bytes @ 0xE000201C)
T3558 000:590.268   CPU_WriteMem(4 bytes @ 0xE0001004)
T3558 000:592.619 - 5.136ms
T3558 000:592.648 JLINK_IsHalted()
T3558 000:595.659   CPU_ReadMem(2 bytes @ 0x20000000)
T3558 000:596.134 - 3.493ms returns TRUE
T3558 000:596.154 JLINK_ReadReg(R15 (PC))
T3558 000:596.166 - 0.015ms returns 0x20000000
T3558 000:596.213 JLINK_ClrBPEx(BPHandle = 0x00000001)
T3558 000:596.225 - 0.016ms returns 0x00
T3558 000:596.236 JLINK_ReadReg(R0)
T3558 000:596.245 - 0.013ms returns 0x00000000
T3558 000:596.591 JLINK_HasError()
T3558 000:596.605 JLINK_WriteReg(R0, 0x08000000)
T3558 000:596.615 - 0.014ms returns 0
T3558 000:596.624 JLINK_WriteReg(R1, 0x00004000)
T3558 000:596.633 - 0.012ms returns 0
T3558 000:596.642 JLINK_WriteReg(R2, 0x000000FF)
T3558 000:596.651 - 0.012ms returns 0
T3558 000:596.660 JLINK_WriteReg(R3, 0x00000000)
T3558 000:596.669 - 0.012ms returns 0
T3558 000:596.678 JLINK_WriteReg(R4, 0x00000000)
T3558 000:596.686 - 0.012ms returns 0
T3558 000:596.704 JLINK_WriteReg(R5, 0x00000000)
T3558 000:596.757 - 0.059ms returns 0
T3558 000:596.769 JLINK_WriteReg(R6, 0x00000000)
T3558 000:596.778 - 0.012ms returns 0
T3558 000:596.787 JLINK_WriteReg(R7, 0x00000000)
T3558 000:596.796 - 0.012ms returns 0
T3558 000:596.805 JLINK_WriteReg(R8, 0x00000000)
T3558 000:596.813 - 0.012ms returns 0
T3558 000:596.822 JLINK_WriteReg(R9, 0x2000017C)
T3558 000:596.831 - 0.012ms returns 0
T3558 000:596.840 JLINK_WriteReg(R10, 0x00000000)
T3558 000:596.852 - 0.015ms returns 0
T3558 000:596.861 JLINK_WriteReg(R11, 0x00000000)
T3558 000:596.869 - 0.012ms returns 0
T3558 000:596.878 JLINK_WriteReg(R12, 0x00000000)
T3558 000:596.887 - 0.012ms returns 0
T3558 000:596.896 JLINK_WriteReg(R13 (SP), 0x20001000)
T3558 000:596.905 - 0.013ms returns 0
T3558 000:596.914 JLINK_WriteReg(R14, 0x20000001)
T3558 000:596.923 - 0.012ms returns 0
T3558 000:596.932 JLINK_WriteReg(R15 (PC), 0x20000020)
T3558 000:596.940 - 0.012ms returns 0
T3558 000:596.950 JLINK_WriteReg(XPSR, 0x01000000)
T3558 000:596.958 - 0.012ms returns 0
T3558 000:596.968 JLINK_WriteReg(MSP, 0x20001000)
T3558 000:596.976 - 0.012ms returns 0
T3558 000:596.985 JLINK_WriteReg(PSP, 0x20001000)
T3558 000:596.994 - 0.012ms returns 0
T3558 000:597.003 JLINK_WriteReg(CFBP, 0x00000000)
T3558 000:597.011 - 0.012ms returns 0
T3558 000:597.020 JLINK_SetBPEx(Addr = 0x20000000, Type = 0xFFFFFFF2)
T3558 000:597.030 - 0.013ms returns 0x00000002
T3558 000:597.039 JLINK_Go()
T3558 000:597.053   CPU_ReadMem(4 bytes @ 0xE0001000)
T3558 000:599.479 - 2.448ms
T3558 000:599.495 JLINK_IsHalted()
T3558 000:602.500   CPU_ReadMem(2 bytes @ 0x20000000)
T3558 000:602.907 - 3.421ms returns TRUE
T3558 000:602.924 JLINK_ReadReg(R15 (PC))
T3558 000:602.934 - 0.014ms returns 0x20000000
T3558 000:602.943 JLINK_ClrBPEx(BPHandle = 0x00000002)
T3558 000:602.952 - 0.012ms returns 0x00
T3558 000:602.961 JLINK_ReadReg(R0)
T3558 000:602.969 - 0.012ms returns 0x00000001
T3558 000:602.979 JLINK_HasError()
T3558 000:602.988 JLINK_WriteReg(R0, 0x08000000)
T3558 000:602.997 - 0.012ms returns 0
T3558 000:603.006 JLINK_WriteReg(R1, 0x00004000)
T3558 000:603.014 - 0.012ms returns 0
T3558 000:603.023 JLINK_WriteReg(R2, 0x000000FF)
T3558 000:603.032 - 0.012ms returns 0
T3558 000:603.041 JLINK_WriteReg(R3, 0x00000000)
T3558 000:603.049 - 0.012ms returns 0
T3558 000:603.081 JLINK_WriteReg(R4, 0x00000000)
T3558 000:603.089 - 0.012ms returns 0
T3558 000:603.098 JLINK_WriteReg(R5, 0x00000000)
T3558 000:603.107 - 0.012ms returns 0
T3558 000:603.116 JLINK_WriteReg(R6, 0x00000000)
T3558 000:603.124 - 0.013ms returns 0
T3558 000:603.134 JLINK_WriteReg(R7, 0x00000000)
T3558 000:603.143 - 0.012ms returns 0
T3558 000:603.151 JLINK_WriteReg(R8, 0x00000000)
T3558 000:603.160 - 0.012ms returns 0
T3558 000:603.169 JLINK_WriteReg(R9, 0x2000017C)
T3558 000:603.177 - 0.012ms returns 0
T3558 000:603.186 JLINK_WriteReg(R10, 0x00000000)
T3558 000:603.194 - 0.012ms returns 0
T3558 000:603.203 JLINK_WriteReg(R11, 0x00000000)
T3558 000:603.211 - 0.012ms returns 0
T3558 000:603.220 JLINK_WriteReg(R12, 0x00000000)
T3558 000:603.228 - 0.012ms returns 0
T3558 000:603.238 JLINK_WriteReg(R13 (SP), 0x20001000)
T3558 000:603.246 - 0.012ms returns 0
T3558 000:603.255 JLINK_WriteReg(R14, 0x20000001)
T3558 000:603.264 - 0.012ms returns 0
T3558 000:603.273 JLINK_WriteReg(R15 (PC), 0x200000BC)
T3558 000:603.281 - 0.012ms returns 0
T3558 000:603.305 JLINK_WriteReg(XPSR, 0x01000000)
T3558 000:603.338 - 0.037ms returns 0
T3558 000:603.348 JLINK_WriteReg(MSP, 0x20001000)
T3558 000:603.356 - 0.012ms returns 0
T3558 000:603.365 JLINK_WriteReg(PSP, 0x20001000)
T3558 000:603.373 - 0.012ms returns 0
T3558 000:603.382 JLINK_WriteReg(CFBP, 0x00000000)
T3558 000:603.390 - 0.012ms returns 0
T3558 000:603.399 JLINK_SetBPEx(Addr = 0x20000000, Type = 0xFFFFFFF2)
T3558 000:603.408 - 0.012ms returns 0x00000003
T3558 000:603.417 JLINK_Go()
T3558 000:603.431   CPU_ReadMem(4 bytes @ 0xE0001000)
T3558 000:605.921 - 2.522ms
T3558 000:605.947 JLINK_IsHalted()
T3558 000:606.235 - 0.293ms returns FALSE
T3558 000:606.250 JLINK_HasError()
T3558 000:623.865 JLINK_IsHalted()
T3558 000:624.227 - 0.375ms returns FALSE
T3558 000:624.249 JLINK_HasError()
T3558 000:625.816 JLINK_IsHalted()
T3558 000:626.197 - 0.389ms returns FALSE
T3558 000:626.213 JLINK_HasError()
T3558 000:627.847 JLINK_IsHalted()
T3558 000:628.140 - 0.297ms returns FALSE
T3558 000:628.151 JLINK_HasError()
T3558 000:629.869 JLINK_IsHalted()
T3558 000:630.183 - 0.320ms returns FALSE
T3558 000:630.196 JLINK_HasError()
T3558 000:631.860 JLINK_IsHalted()
T3558 000:632.171 - 0.323ms returns FALSE
T3558 000:632.190 JLINK_HasError()
T3558 000:633.832 JLINK_IsHalted()
T3558 000:634.200 - 0.377ms returns FALSE
T3558 000:634.217 JLINK_HasError()
T3558 000:635.858 JLINK_IsHalted()
T3558 000:636.187 - 0.336ms returns FALSE
T3558 000:636.201 JLINK_HasError()
T3558 000:637.845 JLINK_IsHalted()
T3558 000:638.159 - 0.320ms returns FALSE
T3558 000:638.173 JLINK_HasError()
T3558 000:639.861 JLINK_IsHalted()
T3558 000:640.161 - 0.306ms returns FALSE
T3558 000:640.172 JLINK_HasError()
T3558 000:641.881 JLINK_IsHalted()
T3558 000:642.170 - 0.294ms returns FALSE
T3558 000:642.181 JLINK_HasError()
T3558 000:643.855 JLINK_IsHalted()
T3558 000:644.163 - 0.314ms returns FALSE
T3558 000:644.175 JLINK_HasError()
T3558 000:645.867 JLINK_IsHalted()
T3558 000:646.161 - 0.306ms returns FALSE
T3558 000:646.180 JLINK_HasError()
T3558 000:647.852 JLINK_IsHalted()
T3558 000:648.140 - 0.293ms returns FALSE
T3558 000:648.151 JLINK_HasError()
T3558 000:649.857 JLINK_IsHalted()
T3558 000:650.144 - 0.292ms returns FALSE
T3558 000:650.155 JLINK_HasError()
T3558 000:651.806 JLINK_IsHalted()
T3558 000:652.097 - 0.295ms returns FALSE
T3558 000:652.108 JLINK_HasError()
T3558 000:653.855 JLINK_IsHalted()
T3558 000:654.136 - 0.286ms returns FALSE
T3558 000:654.147 JLINK_HasError()
T3558 000:655.850 JLINK_IsHalted()
T3558 000:656.134 - 0.289ms returns FALSE
T3558 000:656.145 JLINK_HasError()
T3558 000:657.850 JLINK_IsHalted()
T3558 000:658.134 - 0.289ms returns FALSE
T3558 000:658.144 JLINK_HasError()
T3558 000:659.864 JLINK_IsHalted()
T3558 000:660.213 - 0.361ms returns FALSE
T3558 000:660.233 JLINK_HasError()
T3558 000:663.862 JLINK_IsHalted()
T3558 000:664.175 - 0.338ms returns FALSE
T3558 000:664.207 JLINK_HasError()
T3558 000:665.871 JLINK_IsHalted()
T3558 000:666.171 - 0.315ms returns FALSE
T3558 000:666.216 JLINK_HasError()
T3558 000:667.865 JLINK_IsHalted()
T3558 000:668.220 - 0.366ms returns FALSE
T3558 000:668.240 JLINK_HasError()
T3558 000:669.875 JLINK_IsHalted()
T3558 000:670.167 - 0.300ms returns FALSE
T3558 000:670.183 JLINK_HasError()
T3558 000:671.859 JLINK_IsHalted()
T3558 000:672.159 - 0.305ms returns FALSE
T3558 000:672.170 JLINK_HasError()
T3558 000:673.889 JLINK_IsHalted()
T3558 000:674.179 - 0.295ms returns FALSE
T3558 000:674.190 JLINK_HasError()
T3558 000:676.858 JLINK_IsHalted()
T3558 000:677.161 - 0.313ms returns FALSE
T3558 000:677.191 JLINK_HasError()
T3558 000:678.855 JLINK_IsHalted()
T3558 000:679.162 - 0.331ms returns FALSE
T3558 000:679.192 JLINK_HasError()
T3558 000:680.864 JLINK_IsHalted()
T3558 000:681.162 - 0.321ms returns FALSE
T3558 000:681.191 JLINK_HasError()
T3558 000:682.860 JLINK_IsHalted()
T3558 000:683.155 - 0.306ms returns FALSE
T3558 000:683.173 JLINK_HasError()
T3558 000:684.868 JLINK_IsHalted()
T3558 000:685.160 - 0.296ms returns FALSE
T3558 000:685.171 JLINK_HasError()
T3558 000:686.862 JLINK_IsHalted()
T3558 000:687.158 - 0.301ms returns FALSE
T3558 000:687.169 JLINK_HasError()
T3558 000:688.850 JLINK_IsHalted()
T3558 000:689.134 - 0.288ms returns FALSE
T3558 000:689.144 JLINK_HasError()
T3558 000:690.855 JLINK_IsHalted()
T3558 000:691.160 - 0.310ms returns FALSE
T3558 000:691.171 JLINK_HasError()
T3558 000:692.831 JLINK_IsHalted()
T3558 000:693.145 - 0.319ms returns FALSE
T3558 000:693.156 JLINK_HasError()
T3558 000:694.895 JLINK_IsHalted()
T3558 000:695.188 - 0.298ms returns FALSE
T3558 000:695.199 JLINK_HasError()
T3558 000:696.854 JLINK_IsHalted()
T3558 000:697.151 - 0.301ms returns FALSE
T3558 000:697.162 JLINK_HasError()
T3558 000:698.863 JLINK_IsHalted()
T3558 000:699.148 - 0.290ms returns FALSE
T3558 000:699.159 JLINK_HasError()
T3558 000:700.851 JLINK_IsHalted()
T3558 000:701.139 - 0.293ms returns FALSE
T3558 000:701.149 JLINK_HasError()
T3558 000:702.851 JLINK_IsHalted()
T3558 000:703.134 - 0.287ms returns FALSE
T3558 000:703.144 JLINK_HasError()
T3558 000:704.808 JLINK_IsHalted()
T3558 000:705.097 - 0.294ms returns FALSE
T3558 000:705.108 JLINK_HasError()
T3558 000:708.884 JLINK_IsHalted()
T3558 000:709.213 - 0.343ms returns FALSE
T3558 000:709.233 JLINK_HasError()
T3558 000:710.887 JLINK_IsHalted()
T3558 000:711.175 - 0.292ms returns FALSE
T3558 000:711.185 JLINK_HasError()
T3558 000:712.849 JLINK_IsHalted()
T3558 000:713.137 - 0.302ms returns FALSE
T3558 000:713.160 JLINK_HasError()
T3558 000:714.846 JLINK_IsHalted()
T3558 000:715.133 - 0.291ms returns FALSE
T3558 000:715.144 JLINK_HasError()
T3558 000:716.857 JLINK_IsHalted()
T3558 000:717.138 - 0.285ms returns FALSE
T3558 000:717.148 JLINK_HasError()
T3558 000:718.856 JLINK_IsHalted()
T3558 000:719.157 - 0.305ms returns FALSE
T3558 000:719.167 JLINK_HasError()
T3558 000:720.859 JLINK_IsHalted()
T3558 000:721.152 - 0.298ms returns FALSE
T3558 000:721.162 JLINK_HasError()
T3558 000:722.858 JLINK_IsHalted()
T3558 000:723.143 - 0.290ms returns FALSE
T3558 000:723.154 JLINK_HasError()
T3558 000:724.863 JLINK_IsHalted()
T3558 000:725.156 - 0.298ms returns FALSE
T3558 000:725.167 JLINK_HasError()
T3558 000:726.890 JLINK_IsHalted()
T3558 000:727.177 - 0.293ms returns FALSE
T3558 000:727.189 JLINK_HasError()
T3558 000:728.858 JLINK_IsHalted()
T3558 000:729.138 - 0.285ms returns FALSE
T3558 000:729.148 JLINK_HasError()
T3558 000:730.851 JLINK_IsHalted()
T3558 000:731.133 - 0.286ms returns FALSE
T3558 000:731.143 JLINK_HasError()
T3558 000:732.855 JLINK_IsHalted()
T3558 000:733.134 - 0.284ms returns FALSE
T3558 000:733.144 JLINK_HasError()
T3558 000:734.850 JLINK_IsHalted()
T3558 000:735.133 - 0.287ms returns FALSE
T3558 000:735.143 JLINK_HasError()
T3558 000:736.848 JLINK_IsHalted()
T3558 000:737.126 - 0.281ms returns FALSE
T3558 000:737.136 JLINK_HasError()
T3558 000:738.813 JLINK_IsHalted()
T3558 000:739.113 - 0.309ms returns FALSE
T3558 000:739.129 JLINK_HasError()
T3558 000:740.880 JLINK_IsHalted()
T3558 000:741.178 - 0.303ms returns FALSE
T3558 000:741.189 JLINK_HasError()
T3558 000:742.856 JLINK_IsHalted()
T3558 000:743.162 - 0.311ms returns FALSE
T3558 000:743.173 JLINK_HasError()
T3558 000:744.860 JLINK_IsHalted()
T3558 000:745.148 - 0.293ms returns FALSE
T3558 000:745.159 JLINK_HasError()
T3558 000:746.854 JLINK_IsHalted()
T3558 000:747.143 - 0.294ms returns FALSE
T3558 000:747.154 JLINK_HasError()
T3558 000:748.892 JLINK_IsHalted()
T3558 000:749.207 - 0.322ms returns FALSE
T3558 000:749.220 JLINK_HasError()
T3558 000:750.862 JLINK_IsHalted()
T3558 000:751.155 - 0.298ms returns FALSE
T3558 000:751.166 JLINK_HasError()
T3558 000:752.857 JLINK_IsHalted()
T3558 000:753.153 - 0.301ms returns FALSE
T3558 000:753.165 JLINK_HasError()
T3558 000:754.854 JLINK_IsHalted()
T3558 000:755.135 - 0.285ms returns FALSE
T3558 000:755.145 JLINK_HasError()
T3558 000:756.853 JLINK_IsHalted()
T3558 000:757.135 - 0.286ms returns FALSE
T3558 000:757.145 JLINK_HasError()
T3558 000:758.806 JLINK_IsHalted()
T3558 000:759.094 - 0.293ms returns FALSE
T3558 000:759.106 JLINK_HasError()
T3558 000:762.832 JLINK_IsHalted()
T3558 000:763.210 - 0.383ms returns FALSE
T3558 000:763.221 JLINK_HasError()
T3558 000:764.861 JLINK_IsHalted()
T3558 000:765.175 - 0.325ms returns FALSE
T3558 000:765.192 JLINK_HasError()
T3558 000:766.858 JLINK_IsHalted()
T3558 000:767.159 - 0.313ms returns FALSE
T3558 000:767.178 JLINK_HasError()
T3558 000:768.858 JLINK_IsHalted()
T3558 000:769.173 - 0.324ms returns FALSE
T3558 000:769.189 JLINK_HasError()
T3558 000:770.895 JLINK_IsHalted()
T3558 000:771.188 - 0.297ms returns FALSE
T3558 000:771.199 JLINK_HasError()
T3558 000:772.852 JLINK_IsHalted()
T3558 000:773.133 - 0.286ms returns FALSE
T3558 000:773.144 JLINK_HasError()
T3558 000:774.852 JLINK_IsHalted()
T3558 000:775.132 - 0.284ms returns FALSE
T3558 000:775.142 JLINK_HasError()
T3558 000:776.807 JLINK_IsHalted()
T3558 000:777.087 - 0.284ms returns FALSE
T3558 000:777.098 JLINK_HasError()
T3558 000:778.858 JLINK_IsHalted()
T3558 000:779.139 - 0.286ms returns FALSE
T3558 000:779.149 JLINK_HasError()
T3558 000:780.892 JLINK_IsHalted()
T3558 000:781.177 - 0.290ms returns FALSE
T3558 000:781.188 JLINK_HasError()
T3558 000:782.853 JLINK_IsHalted()
T3558 000:783.137 - 0.289ms returns FALSE
T3558 000:783.148 JLINK_HasError()
T3558 000:784.855 JLINK_IsHalted()
T3558 000:785.143 - 0.292ms returns FALSE
T3558 000:785.154 JLINK_HasError()
T3558 000:786.854 JLINK_IsHalted()
T3558 000:787.134 - 0.284ms returns FALSE
T3558 000:787.144 JLINK_HasError()
T3558 000:788.853 JLINK_IsHalted()
T3558 000:789.134 - 0.286ms returns FALSE
T3558 000:789.145 JLINK_HasError()
T3558 000:790.852 JLINK_IsHalted()
T3558 000:791.160 - 0.313ms returns FALSE
T3558 000:791.170 JLINK_HasError()
T3558 000:792.867 JLINK_IsHalted()
T3558 000:793.163 - 0.301ms returns FALSE
T3558 000:793.174 JLINK_HasError()
T3558 000:794.855 JLINK_IsHalted()
T3558 000:795.138 - 0.288ms returns FALSE
T3558 000:795.149 JLINK_HasError()
T3558 000:796.849 JLINK_IsHalted()
T3558 000:797.132 - 0.287ms returns FALSE
T3558 000:797.142 JLINK_HasError()
T3558 000:798.854 JLINK_IsHalted()
T3558 000:799.136 - 0.286ms returns FALSE
T3558 000:799.146 JLINK_HasError()
T3558 000:800.852 JLINK_IsHalted()
T3558 000:801.148 - 0.300ms returns FALSE
T3558 000:801.158 JLINK_HasError()
T3558 000:802.810 JLINK_IsHalted()
T3558 000:803.102 - 0.299ms returns FALSE
T3558 000:803.115 JLINK_HasError()
T3558 000:806.855 JLINK_IsHalted()
T3558 000:807.166 - 0.316ms returns FALSE
T3558 000:807.177 JLINK_HasError()
T3558 000:808.858 JLINK_IsHalted()
T3558 000:809.154 - 0.300ms returns FALSE
T3558 000:809.165 JLINK_HasError()
T3558 000:810.851 JLINK_IsHalted()
T3558 000:811.153 - 0.307ms returns FALSE
T3558 000:811.164 JLINK_HasError()
T3558 000:812.859 JLINK_IsHalted()
T3558 000:813.148 - 0.302ms returns FALSE
T3558 000:813.169 JLINK_HasError()
T3558 000:814.875 JLINK_IsHalted()
T3558 000:815.163 - 0.295ms returns FALSE
T3558 000:815.176 JLINK_HasError()
T3558 000:817.853 JLINK_IsHalted()
T3558 000:818.213 - 0.365ms returns FALSE
T3558 000:818.224 JLINK_HasError()
T3558 000:819.866 JLINK_IsHalted()
T3558 000:820.199 - 0.338ms returns FALSE
T3558 000:820.210 JLINK_HasError()
T3558 000:821.872 JLINK_IsHalted()
T3558 000:822.177 - 0.310ms returns FALSE
T3558 000:822.188 JLINK_HasError()
T3558 000:823.859 JLINK_IsHalted()
T3558 000:824.179 - 0.325ms returns FALSE
T3558 000:824.190 JLINK_HasError()
T3558 000:825.875 JLINK_IsHalted()
T3558 000:826.189 - 0.330ms returns FALSE
T3558 000:826.211 JLINK_HasError()
T3558 000:827.911 JLINK_IsHalted()
T3558 000:828.216 - 0.313ms returns FALSE
T3558 000:828.232 JLINK_HasError()
T3558 000:829.867 JLINK_IsHalted()
T3558 000:830.160 - 0.298ms returns FALSE
T3558 000:830.172 JLINK_HasError()
T3558 000:831.885 JLINK_IsHalted()
T3558 000:832.184 - 0.305ms returns FALSE
T3558 000:832.196 JLINK_HasError()
T3558 000:834.866 JLINK_IsHalted()
T3558 000:835.167 - 0.311ms returns FALSE
T3558 000:835.204 JLINK_HasError()
T3558 000:836.846 JLINK_IsHalted()
T3558 000:837.133 - 0.292ms returns FALSE
T3558 000:837.144 JLINK_HasError()
T3558 000:838.849 JLINK_IsHalted()
T3558 000:839.136 - 0.297ms returns FALSE
T3558 000:839.154 JLINK_HasError()
T3558 000:840.855 JLINK_IsHalted()
T3558 000:841.148 - 0.298ms returns FALSE
T3558 000:841.158 JLINK_HasError()
T3558 000:842.859 JLINK_IsHalted()
T3558 000:843.145 - 0.293ms returns FALSE
T3558 000:843.158 JLINK_HasError()
T3558 000:844.864 JLINK_IsHalted()
T3558 000:845.159 - 0.300ms returns FALSE
T3558 000:845.170 JLINK_HasError()
T3558 000:846.853 JLINK_IsHalted()
T3558 000:847.141 - 0.336ms returns FALSE
T3558 000:847.198 JLINK_HasError()
T3558 000:848.859 JLINK_IsHalted()
T3558 000:849.150 - 0.295ms returns FALSE
T3558 000:849.160 JLINK_HasError()
T3558 000:850.806 JLINK_IsHalted()
T3558 000:851.168 - 0.372ms returns FALSE
T3558 000:851.186 JLINK_HasError()
T3558 000:854.874 JLINK_IsHalted()
T3558 000:855.203 - 0.349ms returns FALSE
T3558 000:855.232 JLINK_HasError()
T3558 000:856.865 JLINK_IsHalted()
T3558 000:857.155 - 0.295ms returns FALSE
T3558 000:857.165 JLINK_HasError()
T3558 000:858.855 JLINK_IsHalted()
T3558 000:859.151 - 0.307ms returns FALSE
T3558 000:859.168 JLINK_HasError()
T3558 000:860.874 JLINK_IsHalted()
T3558 000:861.158 - 0.289ms returns FALSE
T3558 000:861.169 JLINK_HasError()
T3558 000:862.857 JLINK_IsHalted()
T3558 000:863.138 - 0.285ms returns FALSE
T3558 000:863.148 JLINK_HasError()
T3558 000:864.845 JLINK_IsHalted()
T3558 000:865.122 - 0.281ms returns FALSE
T3558 000:865.133 JLINK_HasError()
T3558 000:866.849 JLINK_IsHalted()
T3558 000:867.134 - 0.290ms returns FALSE
T3558 000:867.145 JLINK_HasError()
T3558 000:868.853 JLINK_IsHalted()
T3558 000:869.142 - 0.294ms returns FALSE
T3558 000:869.152 JLINK_HasError()
T3558 000:870.831 JLINK_IsHalted()
T3558 000:871.133 - 0.306ms returns FALSE
T3558 000:871.144 JLINK_HasError()
T3558 000:872.883 JLINK_IsHalted()
T3558 000:873.168 - 0.289ms returns FALSE
T3558 000:873.179 JLINK_HasError()
T3558 000:874.861 JLINK_IsHalted()
T3558 000:875.170 - 0.314ms returns FALSE
T3558 000:875.181 JLINK_HasError()
T3558 000:876.809 JLINK_IsHalted()
T3558 000:877.100 - 0.296ms returns FALSE
T3558 000:877.110 JLINK_HasError()
T3558 000:878.856 JLINK_IsHalted()
T3558 000:879.169 - 0.318ms returns FALSE
T3558 000:879.180 JLINK_HasError()
T3558 000:880.856 JLINK_IsHalted()
T3558 000:881.143 - 0.291ms returns FALSE
T3558 000:881.154 JLINK_HasError()
T3558 000:884.863 JLINK_IsHalted()
T3558 000:885.197 - 0.356ms returns FALSE
T3558 000:885.226 JLINK_HasError()
T3558 000:886.858 JLINK_IsHalted()
T3558 000:887.166 - 0.331ms returns FALSE
T3558 000:887.194 JLINK_HasError()
T3558 000:888.825 JLINK_IsHalted()
T3558 000:889.185 - 0.369ms returns FALSE
T3558 000:889.201 JLINK_HasError()
T3558 000:890.880 JLINK_IsHalted()
T3558 000:891.180 - 0.323ms returns FALSE
T3558 000:891.208 JLINK_HasError()
T3558 000:892.857 JLINK_IsHalted()
T3558 000:893.163 - 0.311ms returns FALSE
T3558 000:893.174 JLINK_HasError()
T3558 000:894.813 JLINK_IsHalted()
T3558 000:895.123 - 0.320ms returns FALSE
T3558 000:895.141 JLINK_HasError()
T3558 000:896.859 JLINK_IsHalted()
T3558 000:897.150 - 0.301ms returns FALSE
T3558 000:897.160 JLINK_HasError()
T3558 000:898.859 JLINK_IsHalted()
T3558 000:899.173 - 0.319ms returns FALSE
T3558 000:899.184 JLINK_HasError()
T3558 000:900.807 JLINK_IsHalted()
T3558 000:901.113 - 0.310ms returns FALSE
T3558 000:901.124 JLINK_HasError()
T3558 000:904.896 JLINK_IsHalted()
T3558 000:905.233 - 0.350ms returns FALSE
T3558 000:905.253 JLINK_HasError()
T3558 000:906.866 JLINK_IsHalted()
T3558 000:907.163 - 0.303ms returns FALSE
T3558 000:907.192 JLINK_HasError()
T3558 000:908.832 JLINK_IsHalted()
T3558 000:909.143 - 0.320ms returns FALSE
T3558 000:909.160 JLINK_HasError()
T3558 000:910.868 JLINK_IsHalted()
T3558 000:911.166 - 0.311ms returns FALSE
T3558 000:911.188 JLINK_HasError()
T3558 000:912.872 JLINK_IsHalted()
T3558 000:913.161 - 0.294ms returns FALSE
T3558 000:913.172 JLINK_HasError()
T3558 000:914.853 JLINK_IsHalted()
T3558 000:915.148 - 0.300ms returns FALSE
T3558 000:915.159 JLINK_HasError()
T3558 000:916.870 JLINK_IsHalted()
T3558 000:917.198 - 0.335ms returns FALSE
T3558 000:917.211 JLINK_HasError()
T3558 000:918.863 JLINK_IsHalted()
T3558 000:919.191 - 0.340ms returns FALSE
T3558 000:919.205 JLINK_HasError()
T3558 000:920.892 JLINK_IsHalted()
T3558 000:921.185 - 0.298ms returns FALSE
T3558 000:921.196 JLINK_HasError()
T3558 000:922.807 JLINK_IsHalted()
T3558 000:923.105 - 0.303ms returns FALSE
T3558 000:923.115 JLINK_HasError()
T3558 000:924.809 JLINK_IsHalted()
T3558 000:925.118 - 0.313ms returns FALSE
T3558 000:925.129 JLINK_HasError()
T3558 000:927.860 JLINK_IsHalted()
T3558 000:928.156 - 0.318ms returns FALSE
T3558 000:928.185 JLINK_HasError()
T3558 000:929.857 JLINK_IsHalted()
T3558 000:930.157 - 0.304ms returns FALSE
T3558 000:930.167 JLINK_HasError()
T3558 000:931.860 JLINK_IsHalted()
T3558 000:932.151 - 0.301ms returns FALSE
T3558 000:932.172 JLINK_HasError()
T3558 000:933.857 JLINK_IsHalted()
T3558 000:934.143 - 0.290ms returns FALSE
T3558 000:934.153 JLINK_HasError()
T3558 000:935.863 JLINK_IsHalted()
T3558 000:936.148 - 0.290ms returns FALSE
T3558 000:936.159 JLINK_HasError()
T3558 000:937.861 JLINK_IsHalted()
T3558 000:938.160 - 0.304ms returns FALSE
T3558 000:938.170 JLINK_HasError()
T3558 000:939.871 JLINK_IsHalted()
T3558 000:940.163 - 0.298ms returns FALSE
T3558 000:940.174 JLINK_HasError()
T3558 000:941.855 JLINK_IsHalted()
T3558 000:942.134 - 0.284ms returns FALSE
T3558 000:942.145 JLINK_HasError()
T3558 000:943.807 JLINK_IsHalted()
T3558 000:944.096 - 0.293ms returns FALSE
T3558 000:944.107 JLINK_HasError()
T3558 000:947.875 JLINK_IsHalted()
T3558 000:948.221 - 0.367ms returns FALSE
T3558 000:948.249 JLINK_HasError()
T3558 000:949.859 JLINK_IsHalted()
T3558 000:950.167 - 0.312ms returns FALSE
T3558 000:950.177 JLINK_HasError()
T3558 000:951.861 JLINK_IsHalted()
T3558 000:952.212 - 0.358ms returns FALSE
T3558 000:952.225 JLINK_HasError()
T3558 000:953.856 JLINK_IsHalted()
T3558 000:954.142 - 0.297ms returns FALSE
T3558 000:954.161 JLINK_HasError()
T3558 000:955.852 JLINK_IsHalted()
T3558 000:956.147 - 0.301ms returns FALSE
T3558 000:956.160 JLINK_HasError()
T3558 000:957.843 JLINK_IsHalted()
T3558 000:958.169 - 0.337ms returns FALSE
T3558 000:958.193 JLINK_HasError()
T3558 000:959.868 JLINK_IsHalted()
T3558 000:960.171 - 0.308ms returns FALSE
T3558 000:960.182 JLINK_HasError()
T3558 000:961.860 JLINK_IsHalted()
T3558 000:962.148 - 0.292ms returns FALSE
T3558 000:962.158 JLINK_HasError()
T3558 000:963.860 JLINK_IsHalted()
T3558 000:964.176 - 0.322ms returns FALSE
T3558 000:964.187 JLINK_HasError()
T3558 000:965.865 JLINK_IsHalted()
T3558 000:966.150 - 0.290ms returns FALSE
T3558 000:966.161 JLINK_HasError()
T3558 000:967.864 JLINK_IsHalted()
T3558 000:968.156 - 0.297ms returns FALSE
T3558 000:968.167 JLINK_HasError()
T3558 000:969.854 JLINK_IsHalted()
T3558 000:970.156 - 0.307ms returns FALSE
T3558 000:970.167 JLINK_HasError()
T3558 000:971.862 JLINK_IsHalted()
T3558 000:972.159 - 0.302ms returns FALSE
T3558 000:972.169 JLINK_HasError()
T3558 000:973.856 JLINK_IsHalted()
T3558 000:974.142 - 0.291ms returns FALSE
T3558 000:974.153 JLINK_HasError()
T3558 000:975.807 JLINK_IsHalted()
T3558 000:978.717   CPU_ReadMem(2 bytes @ 0x20000000)
T3558 000:979.104 - 3.302ms returns TRUE
T3558 000:979.116 JLINK_ReadReg(R15 (PC))
T3558 000:979.125 - 0.013ms returns 0x20000000
T3558 000:979.134 JLINK_ClrBPEx(BPHandle = 0x00000003)
T3558 000:979.142 - 0.011ms returns 0x00
T3558 000:979.151 JLINK_ReadReg(R0)
T3558 000:979.158 - 0.011ms returns 0x00000000
T3558 000:979.653 JLINK_HasError()
T3558 000:979.667 JLINK_WriteReg(R0, 0x08004000)
T3558 000:979.678 - 0.014ms returns 0
T3558 000:979.687 JLINK_WriteReg(R1, 0x00004000)
T3558 000:979.694 - 0.011ms returns 0
T3558 000:979.702 JLINK_WriteReg(R2, 0x000000FF)
T3558 000:979.710 - 0.011ms returns 0
T3558 000:979.718 JLINK_WriteReg(R3, 0x00000000)
T3558 000:979.725 - 0.011ms returns 0
T3558 000:979.734 JLINK_WriteReg(R4, 0x00000000)
T3558 000:979.741 - 0.010ms returns 0
T3558 000:979.749 JLINK_WriteReg(R5, 0x00000000)
T3558 000:979.756 - 0.010ms returns 0
T3558 000:979.764 JLINK_WriteReg(R6, 0x00000000)
T3558 000:979.772 - 0.010ms returns 0
T3558 000:979.780 JLINK_WriteReg(R7, 0x00000000)
T3558 000:979.787 - 0.010ms returns 0
T3558 000:979.795 JLINK_WriteReg(R8, 0x00000000)
T3558 000:979.803 - 0.011ms returns 0
T3558 000:979.811 JLINK_WriteReg(R9, 0x2000017C)
T3558 000:979.819 - 0.011ms returns 0
T3558 000:979.829 JLINK_WriteReg(R10, 0x00000000)
T3558 000:979.839 - 0.013ms returns 0
T3558 000:979.847 JLINK_WriteReg(R11, 0x00000000)
T3558 000:979.854 - 0.010ms returns 0
T3558 000:979.862 JLINK_WriteReg(R12, 0x00000000)
T3558 000:979.870 - 0.012ms returns 0
T3558 000:979.884 JLINK_WriteReg(R13 (SP), 0x20001000)
T3558 000:979.898 - 0.017ms returns 0
T3558 000:979.906 JLINK_WriteReg(R14, 0x20000001)
T3558 000:979.914 - 0.012ms returns 0
T3558 000:979.923 JLINK_WriteReg(R15 (PC), 0x20000020)
T3558 000:979.931 - 0.012ms returns 0
T3558 000:979.940 JLINK_WriteReg(XPSR, 0x01000000)
T3558 000:979.948 - 0.011ms returns 0
T3558 000:979.956 JLINK_WriteReg(MSP, 0x20001000)
T3558 000:979.964 - 0.011ms returns 0
T3558 000:979.972 JLINK_WriteReg(PSP, 0x20001000)
T3558 000:979.980 - 0.011ms returns 0
T3558 000:979.999 JLINK_WriteReg(CFBP, 0x00000000)
T3558 000:980.007 - 0.011ms returns 0
T3558 000:980.015 JLINK_SetBPEx(Addr = 0x20000000, Type = 0xFFFFFFF2)
T3558 000:980.023 - 0.012ms returns 0x00000004
T3558 000:980.032 JLINK_Go()
T3558 000:980.046   CPU_ReadMem(4 bytes @ 0xE0001000)
T3558 000:982.534 - 2.512ms
T3558 000:982.550 JLINK_IsHalted()
T3558 000:985.573   CPU_ReadMem(2 bytes @ 0x20000000)
T3558 000:985.972 - 3.431ms returns TRUE
T3558 000:985.991 JLINK_ReadReg(R15 (PC))
T3558 000:986.001 - 0.013ms returns 0x20000000
T3558 000:986.010 JLINK_ClrBPEx(BPHandle = 0x00000004)
T3558 000:986.018 - 0.011ms returns 0x00
T3558 000:986.027 JLINK_ReadReg(R0)
T3558 000:986.036 - 0.011ms returns 0x00000001
T3558 000:986.044 JLINK_HasError()
T3558 000:986.053 JLINK_WriteReg(R0, 0x08004000)
T3558 000:986.062 - 0.012ms returns 0
T3558 000:986.072 JLINK_WriteReg(R1, 0x00004000)
T3558 000:986.080 - 0.011ms returns 0
T3558 000:986.090 JLINK_WriteReg(R2, 0x000000FF)
T3558 000:986.098 - 0.011ms returns 0
T3558 000:986.106 JLINK_WriteReg(R3, 0x00000000)
T3558 000:986.114 - 0.011ms returns 0
T3558 000:986.122 JLINK_WriteReg(R4, 0x00000000)
T3558 000:986.130 - 0.012ms returns 0
T3558 000:986.139 JLINK_WriteReg(R5, 0x00000000)
T3558 000:986.147 - 0.011ms returns 0
T3558 000:986.157 JLINK_WriteReg(R6, 0x00000000)
T3558 000:986.164 - 0.011ms returns 0
T3558 000:986.173 JLINK_WriteReg(R7, 0x00000000)
T3558 000:986.180 - 0.011ms returns 0
T3558 000:986.190 JLINK_WriteReg(R8, 0x00000000)
T3558 000:986.199 - 0.011ms returns 0
T3558 000:986.208 JLINK_WriteReg(R9, 0x2000017C)
T3558 000:986.216 - 0.011ms returns 0
T3558 000:986.224 JLINK_WriteReg(R10, 0x00000000)
T3558 000:986.233 - 0.012ms returns 0
T3558 000:986.241 JLINK_WriteReg(R11, 0x00000000)
T3558 000:986.249 - 0.011ms returns 0
T3558 000:986.257 JLINK_WriteReg(R12, 0x00000000)
T3558 000:986.266 - 0.012ms returns 0
T3558 000:986.274 JLINK_WriteReg(R13 (SP), 0x20001000)
T3558 000:986.283 - 0.012ms returns 0
T3558 000:986.292 JLINK_WriteReg(R14, 0x20000001)
T3558 000:986.301 - 0.011ms returns 0
T3558 000:986.311 JLINK_WriteReg(R15 (PC), 0x200000BC)
T3558 000:986.318 - 0.011ms returns 0
T3558 000:986.328 JLINK_WriteReg(XPSR, 0x01000000)
T3558 000:986.336 - 0.011ms returns 0
T3558 000:986.345 JLINK_WriteReg(MSP, 0x20001000)
T3558 000:986.353 - 0.011ms returns 0
T3558 000:986.362 JLINK_WriteReg(PSP, 0x20001000)
T3558 000:986.369 - 0.011ms returns 0
T3558 000:986.380 JLINK_WriteReg(CFBP, 0x00000000)
T3558 000:986.387 - 0.011ms returns 0
T3558 000:986.397 JLINK_SetBPEx(Addr = 0x20000000, Type = 0xFFFFFFF2)
T3558 000:986.405 - 0.011ms returns 0x00000005
T3558 000:986.414 JLINK_Go()
T3558 000:986.427   CPU_ReadMem(4 bytes @ 0xE0001000)
T3558 000:988.873 - 2.464ms
T3558 000:988.888 JLINK_IsHalted()
T3558 000:989.170 - 0.288ms returns FALSE
T3558 000:989.185 JLINK_HasError()
T3558 000:990.858 JLINK_IsHalted()
T3558 000:991.142 - 0.289ms returns FALSE
T3558 000:991.152 JLINK_HasError()
T3558 000:992.808 JLINK_IsHalted()
T3558 000:993.095 - 0.293ms returns FALSE
T3558 000:993.106 JLINK_HasError()
T3558 000:994.808 JLINK_IsHalted()
T3558 000:995.117 - 0.314ms returns FALSE
T3558 000:995.129 JLINK_HasError()
T3558 000:998.870 JLINK_IsHalted()
T3558 000:999.206 - 0.342ms returns FALSE
T3558 000:999.218 JLINK_HasError()
T3558 001:000.862 JLINK_IsHalted()
T3558 001:001.153 - 0.300ms returns FALSE
T3558 001:001.192 JLINK_HasError()
T3558 001:002.867 JLINK_IsHalted()
T3558 001:003.176 - 0.325ms returns FALSE
T3558 001:003.199 JLINK_HasError()
T3558 001:004.864 JLINK_IsHalted()
T3558 001:005.218 - 0.359ms returns FALSE
T3558 001:005.229 JLINK_HasError()
T3558 001:006.861 JLINK_IsHalted()
T3558 001:007.173 - 0.318ms returns FALSE
T3558 001:007.184 JLINK_HasError()
T3558 001:008.860 JLINK_IsHalted()
T3558 001:009.164 - 0.313ms returns FALSE
T3558 001:009.180 JLINK_HasError()
T3558 001:010.870 JLINK_IsHalted()
T3558 001:011.159 - 0.294ms returns FALSE
T3558 001:011.170 JLINK_HasError()
T3558 001:012.822 JLINK_IsHalted()
T3558 001:013.107 - 0.289ms returns FALSE
T3558 001:013.117 JLINK_HasError()
T3558 001:014.849 JLINK_IsHalted()
T3558 001:015.133 - 0.289ms returns FALSE
T3558 001:015.144 JLINK_HasError()
T3558 001:016.856 JLINK_IsHalted()
T3558 001:017.134 - 0.283ms returns FALSE
T3558 001:017.144 JLINK_HasError()
T3558 001:018.850 JLINK_IsHalted()
T3558 001:019.139 - 0.293ms returns FALSE
T3558 001:019.149 JLINK_HasError()
T3558 001:020.856 JLINK_IsHalted()
T3558 001:021.135 - 0.284ms returns FALSE
T3558 001:021.146 JLINK_HasError()
T3558 001:022.855 JLINK_IsHalted()
T3558 001:023.139 - 0.289ms returns FALSE
T3558 001:023.149 JLINK_HasError()
T3558 001:024.866 JLINK_IsHalted()
T3558 001:025.159 - 0.298ms returns FALSE
T3558 001:025.170 JLINK_HasError()
T3558 001:026.857 JLINK_IsHalted()
T3558 001:027.146 - 0.294ms returns FALSE
T3558 001:027.157 JLINK_HasError()
T3558 001:028.859 JLINK_IsHalted()
T3558 001:029.150 - 0.295ms returns FALSE
T3558 001:029.160 JLINK_HasError()
T3558 001:030.857 JLINK_IsHalted()
T3558 001:031.136 - 0.282ms returns FALSE
T3558 001:031.146 JLINK_HasError()
T3558 001:032.856 JLINK_IsHalted()
T3558 001:033.133 - 0.281ms returns FALSE
T3558 001:033.143 JLINK_HasError()
T3558 001:034.859 JLINK_IsHalted()
T3558 001:035.174 - 0.325ms returns FALSE
T3558 001:035.190 JLINK_HasError()
T3558 001:041.858 JLINK_IsHalted()
T3558 001:042.250 - 0.403ms returns FALSE
T3558 001:042.268 JLINK_HasError()
T3558 001:043.855 JLINK_IsHalted()
T3558 001:044.207 - 0.370ms returns FALSE
T3558 001:044.231 JLINK_HasError()
T3558 001:045.847 JLINK_IsHalted()
T3558 001:046.189 - 0.346ms returns FALSE
T3558 001:046.200 JLINK_HasError()
T3558 001:047.865 JLINK_IsHalted()
T3558 001:048.180 - 0.320ms returns FALSE
T3558 001:048.191 JLINK_HasError()
T3558 001:049.877 JLINK_IsHalted()
T3558 001:050.188 - 0.321ms returns FALSE
T3558 001:050.205 JLINK_HasError()
T3558 001:051.870 JLINK_IsHalted()
T3558 001:052.164 - 0.298ms returns FALSE
T3558 001:052.175 JLINK_HasError()
T3558 001:053.873 JLINK_IsHalted()
T3558 001:054.193 - 0.326ms returns FALSE
T3558 001:054.205 JLINK_HasError()
T3558 001:055.880 JLINK_IsHalted()
T3558 001:056.167 - 0.296ms returns FALSE
T3558 001:056.183 JLINK_HasError()
T3558 001:057.874 JLINK_IsHalted()
T3558 001:058.185 - 0.316ms returns FALSE
T3558 001:058.196 JLINK_HasError()
T3558 001:059.869 JLINK_IsHalted()
T3558 001:060.174 - 0.310ms returns FALSE
T3558 001:060.185 JLINK_HasError()
T3558 001:061.875 JLINK_IsHalted()
T3558 001:062.173 - 0.302ms returns FALSE
T3558 001:062.183 JLINK_HasError()
T3558 001:063.873 JLINK_IsHalted()
T3558 001:064.173 - 0.305ms returns FALSE
T3558 001:064.188 JLINK_HasError()
T3558 001:065.885 JLINK_IsHalted()
T3558 001:066.188 - 0.312ms returns FALSE
T3558 001:066.204 JLINK_HasError()
T3558 001:067.858 JLINK_IsHalted()
T3558 001:068.171 - 0.336ms returns FALSE
T3558 001:068.208 JLINK_HasError()
T3558 001:069.844 JLINK_IsHalted()
T3558 001:070.202 - 0.367ms returns FALSE
T3558 001:070.218 JLINK_HasError()
T3558 001:071.910 JLINK_IsHalted()
T3558 001:072.199 - 0.294ms returns FALSE
T3558 001:072.210 JLINK_HasError()
T3558 001:073.869 JLINK_IsHalted()
T3558 001:074.173 - 0.309ms returns FALSE
T3558 001:074.184 JLINK_HasError()
T3558 001:075.889 JLINK_IsHalted()
T3558 001:076.173 - 0.289ms returns FALSE
T3558 001:076.184 JLINK_HasError()
T3558 001:078.044 JLINK_IsHalted()
T3558 001:078.340 - 0.301ms returns FALSE
T3558 001:078.350 JLINK_HasError()
T3558 001:080.053 JLINK_IsHalted()
T3558 001:080.358 - 0.310ms returns FALSE
T3558 001:080.368 JLINK_HasError()
T3558 001:082.016 JLINK_IsHalted()
T3558 001:082.307 - 0.297ms returns FALSE
T3558 001:082.319 JLINK_HasError()
T3558 001:083.966 JLINK_IsHalted()
T3558 001:084.257 - 0.295ms returns FALSE
T3558 001:084.268 JLINK_HasError()
T3558 001:088.001 JLINK_IsHalted()
T3558 001:088.305 - 0.326ms returns FALSE
T3558 001:088.346 JLINK_HasError()
T3558 001:090.000 JLINK_IsHalted()
T3558 001:090.315 - 0.325ms returns FALSE
T3558 001:090.333 JLINK_HasError()
T3558 001:091.995 JLINK_IsHalted()
T3558 001:092.345 - 0.355ms returns FALSE
T3558 001:092.356 JLINK_HasError()
T3558 001:093.995 JLINK_IsHalted()
T3558 001:094.288 - 0.303ms returns FALSE
T3558 001:094.305 JLINK_HasError()
T3558 001:095.997 JLINK_IsHalted()
T3558 001:096.304 - 0.313ms returns FALSE
T3558 001:096.315 JLINK_HasError()
T3558 001:097.993 JLINK_IsHalted()
T3558 001:098.313 - 0.325ms returns FALSE
T3558 001:098.324 JLINK_HasError()
T3558 001:099.997 JLINK_IsHalted()
T3558 001:100.295 - 0.303ms returns FALSE
T3558 001:100.307 JLINK_HasError()
T3558 001:101.991 JLINK_IsHalted()
T3558 001:102.289 - 0.305ms returns FALSE
T3558 001:102.303 JLINK_HasError()
T3558 001:103.997 JLINK_IsHalted()
T3558 001:104.303 - 0.316ms returns FALSE
T3558 001:104.320 JLINK_HasError()
T3558 001:105.998 JLINK_IsHalted()
T3558 001:106.286 - 0.295ms returns FALSE
T3558 001:106.300 JLINK_HasError()
T3558 001:108.000 JLINK_IsHalted()
T3558 001:108.301 - 0.306ms returns FALSE
T3558 001:108.313 JLINK_HasError()
T3558 001:110.000 JLINK_IsHalted()
T3558 001:110.300 - 0.306ms returns FALSE
T3558 001:110.313 JLINK_HasError()
T3558 001:111.992 JLINK_IsHalted()
